-----------------------------------------------------
【设置】执行1次自动巡检：
  01 06 00 01 00 00 D8 0A

【设置】执行软件方式急停：
  01 06 00 01 00 01 19 CA

【读取】自动巡检模式：[OK]
  01 03 00 01 00 01 D5 CA
-----------------------------------------------------
【设置】通信波特率：
  01 06 00 02 00 08 29 CC       // 115200bps

【读取】通信波特率：[OK]
  01 03 00 02 00 01 25 CA
-----------------------------------------------------
【设置】从机地址：
  01 06 00 03 00 02 F8 0B       // 地址2

【读取】从机地址：[OK]
  01 03 00 03 00 01 74 0A
-----------------------------------------------------
【设置】执行自动充电功能启动：
  01 06 00 04 00 01 09 CB

【设置】执行自动充电功能关闭： 
  01 06 00 05 00 01 58 0B
-----------------------------------------------------
【读取】车体状态： [OK]
  01 03 00 20 00 01 85 C0

-----------------------------------------------------
【读取】触碰传感器： [OK]
  01 03 00 21 00 06 95 C2

-----------------------------------------------------
【读取】RFID传感器： [OK]
  01 03 00 28 00 01 04 02

-----------------------------------------------------
【读取】激光传感器状态 ： [OK]
  01 03 00 30 00 06 C5 C7

-----------------------------------------------------
【读取】机箱温度： [OK]
  01 03 00 09 00 01 54 08

-----------------------------------------------------

【读取】电池电量百分比： [OK]
  01 03 00 10 00 01 85 CF
-----------------------------------------------------
【读取】巡线速度控制源头 [OK]
  01 03 00 4B 00 01 F4 1C
-----------------------------------------------------  
【读取】数字巡线速度     [OK]
  01 03 00 4C 00 01 45 DD
-----------------------------------------------------
*【设置】巡检点停顿时间：
  01 16 00 50 00 02 00 00 75 30 C8 E3    //  30s
  01 16 00 50 00 02 00 00 4E 20 DA 1F   //  20s
  01 16 00 50 00 02 00 00 27 10 F4 5B    //  10s
  01 16 00 50 00 02 00 00 13 88 E3 31    //  5s

*【读取】巡检点停顿时间：[OK]
  01 03 00 50 00 02 C4 1A 

-----------------------------------------------------
*【设置】循环执行自动巡检： (测试使用，不要使用其他命令打断)
  01 16 00 52 00 02 00 07 53 00 40 96               // 8 分钟
  01 16 00 52 00 02 00 09 27 C0 06 05              // 10分钟，
  01 16 00 52 00 02 00 00 00 00 CD A7             // 停止循环自动巡检

*【读取】循环自动巡检周期时间：[OK]
  01 03 00 52 00 02 65 DA

-----------------------------------------------------
 【读取】RFID 超时时间  [OK]
  01 03 00 58 00 01 05 D9
  
-----------------------------------------------------
【设置】LOG等级：[OK]
  01 06 00 60 00 00 89 D4       // verbose
  01 06 00 60 00 06 09 D6       // silence

【读取】LOG等级：[OK]
  01 03 00 60 00 01 84 14

-----------------------------------------------------
【设置】进入升级模式：[OK]
  01 06 00 61 C0 0D 49 D1      

-----------------------------------------------------

