-----------------------------------------------------
【设置】执行1次自动巡检：
  01 06 00 01 00 00 D8 0A

【设置】执行软件方式急停：
  01 06 00 01 00 01 19 CA

【读取】自动巡检模式：
  01 04 00 01 00 01 60 0A
-----------------------------------------------------
【设置】通信波特率：
  01 06 00 02 00 08 29 CC       // 115200bps

【读取】通信波特率：
  01 04 00 02 00 01 90 0A
-----------------------------------------------------
【设置】从机地址：
  01 06 00 03 00 02 F8 0B       // 地址2

【读取】从机地址：
  01 04 00 03 00 01 C1 CA
-----------------------------------------------------
【设置】执行自动充电功能启动：
  01 06 00 04 00 01 09 CB

【设置】执行自动充电功能关闭： 
  01 06 00 05 00 01 58 0B
-----------------------------------------------------
【读取】车体状态： 
  01 04 00 20 00 01 30 00

-----------------------------------------------------
【读取】触碰传感器： 
  01 04 00 21 00 06 20 02

-----------------------------------------------------
【读取】RFID传感器： 
  01 04 00 28 00 01 B1 C2

-----------------------------------------------------
【读取】激光传感器状态 ： 
  01 04 00 30 00 06 70 07

-----------------------------------------------------
【读取】机箱温度： 
  01 04 00 09 00 01 E1 C8

-----------------------------------------------------

【读取】电池电量百分比： 
  01 04 00 10 00 01 30 0F

-----------------------------------------------------
*【设置】巡检点停顿时间：
  01 16 00 50 00 02 00 00 75 30 C8 E3    //  30s
  01 16 00 50 00 02 00 00 4E 20 DA 1F   //  20s
  01 16 00 50 00 02 00 00 27 10 F4 5B    //  10s
  01 16 00 50 00 02 00 00 13 88 E3 31    //  5s

*【读取】巡检点停顿时间：
  01 04 00 50 00 02 71 DA

-----------------------------------------------------
*【设置】循环执行自动巡检： (测试使用，不要使用其他命令打断)
  01 16 00 52 00 02 00 07 53 00 40 96               // 8 分钟
  01 16 00 52 00 02 00 09 27 C0 06 05              // 10分钟，
  01 16 00 52 00 02 00 00 00 00 CD A7             // 停止循环自动巡检

*【读取】循环自动巡检周期时间：
  01 04 00 52 00 02 D0 1A

-----------------------------------------------------
【设置】LOG等级：
  01 06 00 60 00 00 89 D4       // verbose
  01 06 00 60 00 06 09 D6       // silence

【读取】LOG等级：
  01 04 00 60 00 01 31 D4

-----------------------------------------------------
【设置】进入升级模式：
  01 06 00 61 C0 0D 49 D1      

-----------------------------------------------------

