20180721
-----------------
1.以【联想小白AGV】为基础进行矿业大学徐州巡检AGV项目。
2.加入BOOT，从串口1配合上位机软件进行升级。

20180729
-----------------
端口分配：
CAN        ：2个激光测距传感器
串口1_RS232：升级 + 充电通讯DTU
串口2_RS232：WIFI_RTU 
串口3_RS232：RFID
串口4_RS485：BMS
串口5_RS485：2个电机驱动器
---------------------------
c串口1_RS232：DAM0808*
c串口2_RS232：语音播报*
c串口3_RS485：2个磁导航传感器
c串口4_RS485：保留

20180805
-------------------
1.电机读转速不正常。（RX引脚的remap没有做，引脚默认为JTAG）

20180811
-------------------
1.RFID。（RS232地线没接）,调整后读取OK

2.磁导航: J003, J004
  读取传感器有磁无磁： 01 04 00 00 00 08 F1 CC
  从机地址配置：01 06 00 00 00 02 08 0B			// 从机地址0x02
  通信波特率配置：
     01 06 00 01 00 05 18 09			//19200
     02 06 00 01 00 05 18 3A
     
3.警报模组(J005)：无反应  

4.DIDO(J006)：38400 OK       

20180821
-------------------
1.规则：按磁条行走，到RFID卡后表面到达尽头，掉头，然后向前走。前进时一路右转，返回时一路左转。

20180822
-------------------

20180827
-------------------
1.待做：建立T行行走模型，写写T形程序

20180828
-------------------
1.DAM0808:
  输入：CH_01 前触碰
        CH_02 后触碰
        CH_03 前急停
        CH_04 后急停   
        CH_05 ----
        CH_06 ----
        CH_07 ----
        CH_08 ----
                 
  输出：CH_01 红灯
        CH_02 黄灯
        CH_03 绿灯
        CH_04 大蜂鸣器      
        CH_05 风扇1
        CH_06 风扇2
        CH_07 ----
        CH_08 ----
                    
20180901
-------------------      
1.加入BMS和充电机控制      
2.不使用BMS的MOS功能，外接继电器控制干路的通断。
3.        

20180902
------------------- 
1.串口转WIFI的RS232端口是8081，RS485端口是8080.

执行自动充电功能启动：
  01 06 00 04 00 01 09 CB

执行自动充电功能关闭： 
  01 06 00 05 00 01 58 0B
  
执行自动巡检1次
  01 06 00 01 00 00 D8 0A
2.待做：
  > 用户协议完善
  > 巡检等待时间参数化等  

20180904
------------------- 
1. 巡检等待时间修改为RFID_WAIT_MS, 0x50开始寄存器2个。
2. 添加循环巡检时间, 0x52开始寄存器2个。仅供测试。
3. 协议完善。自动巡检：加上一个空闲状态4

20180905
-------------------
1.使用BMS温度(*)作为机箱温度，实现风扇控制
2.初始化和初始化成功分两个语音，初始化时间60s，增加一个语音段，要与老郭的对应上(*)。
3.加入log等级，默认是全部打印 
4.加入MODBUS命令控制升级，代替U.

20180908
------------------
1.修改MODBUS的读命令返回值，以兼容标准PLC，待测试。
2.待做：18B20读取温度并控制风扇；完善文档，梳理流程；